
TBF04 000:011 SEGGER J-Link V6.44i Log File (0000ms, 0011ms total)
TBF04 000:011 DLL Compiled: May 17 2019 17:34:22 (0000ms, 0011ms total)
TBF04 000:011 Logging started @ 2022-10-02 17:18 (0000ms, 0011ms total)
TBF04 000:011 JLINK_SetWarnOutHandler(...) (0000ms, 0011ms total)
TBF04 000:011 JLINK_OpenEx(...)
Firmware: J-Link V9 compiled Dec 13 2019 11:14:50
Hardware: V9.50
S/N: 29534567
Feature(s): FlashDL, JFlash, RDDI, GDB
TELNET listener socket opened on port 19021WEBSRV 
Starting webserver (0099ms, 0110ms total)
TBF04 000:011 WEBSRV Webserver running on local port 19080 (0099ms, 0110ms total)
TBF04 000:011   returns O.K. (0099ms, 0110ms total)
TBF04 000:110 JLINK_GetEmuCaps()  returns 0xB9FF7BBF (0000ms, 0110ms total)
TBF04 000:110 JLINK_TIF_GetAvailable(...) (0001ms, 0111ms total)
TBF04 000:111 JLINK_SetErrorOutHandler(...) (0000ms, 0111ms total)
TBF04 000:111 JLINK_ExecCommand("ProjectFile = "E:\foreign\Mic\SPI-CAN\code\SPIneÐÞ¸Ä12M\JLinkSettings.ini"", ...). Ref file found at: C:\Keil_v5\ARM\Segger\JLinkDevices.ref (0005ms, 0116ms total)
TBF04 000:111 XML referenced by ref file: C:\Program Files (x86)\SEGGER\JLink_V644i\JLinkDevices.xml (0006ms, 0117ms total)
TBF04 000:111 C:\Program Files (x86)\SEGGER\JLink_V644i\JLinkDevices.xml evaluated successfully.Device "STM32F446RC" selected.  returns 0x00 (0436ms, 0547ms total)
TBF04 000:565 JLINK_ExecCommand("Device = STM32F446RETx", ...). Device "STM32F446RC" selected.  returns 0x00 (0011ms, 0558ms total)
TBF04 000:576 JLINK_ExecCommand("DisableConnectionTimeout", ...).   returns 0x01 (0000ms, 0558ms total)
TBF04 000:576 JLINK_GetHardwareVersion()  returns 0x17318 (0000ms, 0558ms total)
TBF04 000:576 JLINK_GetDLLVersion()  returns 64409 (0000ms, 0558ms total)
TBF04 000:576 JLINK_GetFirmwareString(...) (0000ms, 0558ms total)
TBF04 000:605 JLINK_GetDLLVersion()  returns 64409 (0000ms, 0558ms total)
TBF04 000:605 JLINK_GetCompileDateTime() (0000ms, 0558ms total)
TBF04 000:614 JLINK_GetFirmwareString(...) (0000ms, 0558ms total)
TBF04 000:637 JLINK_GetHardwareVersion()  returns 0x17318 (0000ms, 0558ms total)
TBF04 000:684 JLINK_TIF_Select(JLINKARM_TIF_SWD)  returns 0x00 (0003ms, 0561ms total)
TBF04 000:687 JLINK_SetSpeed(10000) (0001ms, 0562ms total)
TBF04 000:688 JLINK_GetId() >0x10B TIF>Found SW-DP with ID 0x2BA01477 >0x0D TIF> >0x28 TIF> >0x0D TIF> >0x28 TIF> >0x0D TIF> >0x28 TIF> >0x0D TIF> >0x28 TIF> >0x0D TIF> >0x21 TIF> >0x0D TIF> >0x28 TIF> >0x0D TIF> >0x28 TIF> >0x0D TIF> >0x28 TIF> >0x0D TIF> >0x21 TIF> >0x0D TIF> >0x21 TIF> >0x0D TIF> >0x28 TIF> >0x0D TIF> >0x21 TIF> >0x0D TIF> >0x21 TIF> >0x0D TIF> >0x28 TIF> >0x0D TIF> >0x28 TIF> >0x0D TIF> >0x28 TIF> >0x0D TIF> >0x21 TIF> >0x0D TIF> >0x21 TIF> >0x0D TIF> >0x28 TIF> >0x0D TIF> >0x28 TIF>
 >0x0D TIF> >0x28 TIF> >0x0D TIF> >0x21 TIF> >0x0D TIF> >0x21 TIF> >0x0D TIF> >0x28 TIF> >0x0D TIF> >0x21 TIF> >0x0D TIF> >0x21 TIF> >0x0D TIF> >0x28 TIF> >0x0D TIF> >0x21 TIF> >0x0D TIF> >0x21 TIF> >0x10B TIF>Found SW-DP with ID 0x2BA01477 >0x0D TIF> >0x28 TIF> >0x0D TIF> >0x28 TIF> >0x0D TIF> >0x28 TIF> >0x0D TIF> >0x28 TIF> >0x0D TIF> >0x21 TIF> >0x0D TIF> >0x28 TIF>Scanning AP map to find all available APs >0x0D TIF> >0x28 TIF> >0x0D TIF> >0x21 TIF> >0x0D TIF> >0x21 TIF> >0x0D TIF> >0x28 TIF>
 >0x0D TIF> >0x21 TIF> >0x0D TIF> >0x21 TIF>AP[1]: Stopped AP scan as end of AP map has been reachedAP[0]: AHB-AP (IDR: 0x24770011)Iterating through AP map to find AHB-AP to use >0x42 TIF> >0x28 TIF> >0x0D TIF> >0x28 TIF> >0x0D TIF> >0x21 TIF> >0x0D TIF> >0x21 TIF> >0x42 TIF> >0x28 TIF> >0x0D TIF> >0x28 TIF> >0x0D TIF> >0x28 TIF> >0x0D TIF> >0x21 TIF> >0x0D TIF> >0x21 TIF>AP[0]: Core foundAP[0]: AHB-AP ROM base: 0xE00FF000 >0x0D TIF> >0x28 TIF> >0x0D TIF> >0x28 TIF> >0x0D TIF> >0x28 TIF> >0x0D TIF>
 >0x21 TIF> >0x0D TIF> >0x21 TIF>CPUID register: 0x410FC241. Implementer code: 0x41 (ARM)Found Cortex-M4 r0p1, Little endian. -- Max. mem block: 0x00010BC8 -- CPU_ReadMem(4 bytes @ 0xE000EDF0) -- CPU_WriteMem(4 bytes @ 0xE000EDF0) -- CPU_ReadMem(4 bytes @ 0xE0002000)FPUnit: 6 code (BP) slots and 2 literal slots -- CPU_ReadMem(4 bytes @ 0xE000EDFC) -- CPU_WriteMem(4 bytes @ 0xE000EDFC) -- CPU_ReadMem(4 bytes @ 0xE0001000) -- CPU_WriteMem(4 bytes @ 0xE0001000) -- CPU_ReadMem(4 bytes @ 0xE000ED88)
 -- CPU_WriteMem(4 bytes @ 0xE000ED88) -- CPU_ReadMem(4 bytes @ 0xE000ED88) -- CPU_WriteMem(4 bytes @ 0xE000ED88)CoreSight components:ROMTbl[0] @ E00FF000 -- CPU_ReadMem(16 bytes @ 0xE00FF000) -- CPU_ReadMem(16 bytes @ 0xE000EFF0) -- CPU_ReadMem(16 bytes @ 0xE000EFE0)ROMTbl[0][0]: E000E000, CID: B105E00D, PID: 000BB00C SCS-M7 -- CPU_ReadMem(16 bytes @ 0xE0001FF0) -- CPU_ReadMem(16 bytes @ 0xE0001FE0)ROMTbl[0][1]: E0001000, CID: B105E00D, PID: 003BB002 DWT -- CPU_ReadMem(16 bytes @ 0xE0002FF0)
 -- CPU_ReadMem(16 bytes @ 0xE0002FE0)ROMTbl[0][2]: E0002000, CID: B105E00D, PID: 002BB003 FPB -- CPU_ReadMem(16 bytes @ 0xE0000FF0) -- CPU_ReadMem(16 bytes @ 0xE0000FE0)ROMTbl[0][3]: E0000000, CID: B105E00D, PID: 003BB001 ITM -- CPU_ReadMem(16 bytes @ 0xE00FF010) -- CPU_ReadMem(16 bytes @ 0xE0040FF0) -- CPU_ReadMem(16 bytes @ 0xE0040FE0)ROMTbl[0][4]: E0040000, CID: B105900D, PID: 000BB9A1 TPIU -- CPU_ReadMem(16 bytes @ 0xE0041FF0) -- CPU_ReadMem(16 bytes @ 0xE0041FE0)
ROMTbl[0][5]: E0041000, CID: B105900D, PID: 000BB925 ETM >0x0D TIF> >0x21 TIF>  returns 0x2BA01477 (0406ms, 0968ms total)
TBF04 001:094 JLINK_GetDLLVersion()  returns 64409 (0000ms, 0968ms total)
TBF04 001:094 JLINK_CORE_GetFound()  returns 0xE0000FF (0000ms, 0968ms total)
TBF04 001:094 JLINK_GetDebugInfo(0x100 = JLINKARM_ROM_TABLE_ADDR_INDEX) -- Value=0xE00FF000  returns 0x00 (0000ms, 0968ms total)
TBF04 001:103 JLINK_GetDebugInfo(0x100 = JLINKARM_ROM_TABLE_ADDR_INDEX) -- Value=0xE00FF000  returns 0x00 (0000ms, 0968ms total)
TBF04 001:103 JLINK_GetDebugInfo(0x101 = JLINKARM_DEBUG_INFO_ETM_ADDR_INDEX) -- Value=0xE0041000  returns 0x00 (0000ms, 0968ms total)
TBF04 001:103 JLINK_ReadMemEx(0xE0041FD0, 0x0020 Bytes, ..., Flags = 0x02000004) -- CPU_ReadMem(32 bytes @ 0xE0041FD0) - Data: 04 00 00 00 00 00 00 00 00 00 00 00 00 00 00 00 ...  returns 0x20 (0001ms, 0969ms total)
TBF04 001:104 JLINK_GetDebugInfo(0x102 = JLINKARM_DEBUG_INFO_MTB_ADDR_INDEX) -- Value=0x00000000  returns 0x00 (0000ms, 0969ms total)
TBF04 001:104 JLINK_GetDebugInfo(0x103 = JLINKARM_DEBUG_INFO_TPIU_ADDR_INDEX) -- Value=0xE0040000  returns 0x00 (0000ms, 0969ms total)
TBF04 001:104 JLINK_GetDebugInfo(0x104 = JLINKARM_DEBUG_INFO_ITM_ADDR_INDEX) -- Value=0xE0000000  returns 0x00 (0000ms, 0969ms total)
TBF04 001:104 JLINK_GetDebugInfo(0x105 = JLINKARM_DEBUG_INFO_DWT_ADDR_INDEX) -- Value=0xE0001000  returns 0x00 (0001ms, 0970ms total)
TBF04 001:105 JLINK_GetDebugInfo(0x106 = JLINKARM_DEBUG_INFO_FPB_ADDR_INDEX) -- Value=0xE0002000  returns 0x00 (0000ms, 0970ms total)
TBF04 001:105 JLINK_GetDebugInfo(0x107 = JLINKARM_DEBUG_INFO_NVIC_ADDR_INDEX) -- Value=0xE000E000  returns 0x00 (0000ms, 0970ms total)
TBF04 001:105 JLINK_GetDebugInfo(0x10C = JLINKARM_DEBUG_INFO_DBG_ADDR_INDEX) -- Value=0xE000EDF0  returns 0x00 (0000ms, 0970ms total)
TBF04 001:105 JLINK_GetDebugInfo(0x01 = Unknown) -- Value=0x00000001  returns 0x00 (0000ms, 0970ms total)
TBF04 001:105 JLINK_ReadMemU32(0xE000ED00, 0x0001 Items, ...) -- CPU_ReadMem(4 bytes @ 0xE000ED00) - Data: 41 C2 0F 41  returns 1 (0000ms, 0970ms total)
TBF04 001:105 JLINK_GetDebugInfo(0x10F = JLINKARM_DEBUG_INFO_HAS_CORTEX_M_SECURITY_EXT_INDEX) -- Value=0x00000000  returns 0x00 (0000ms, 0970ms total)
TBF04 001:105 JLINK_SetResetType(JLINKARM_CM3_RESET_TYPE_NORMAL)  returns JLINKARM_CM3_RESET_TYPE_NORMAL (0000ms, 0970ms total)
TBF04 001:106 JLINK_Reset() -- CPU is running -- CPU_WriteMem(4 bytes @ 0xE000EDF0) -- CPU is running -- CPU_WriteMem(4 bytes @ 0xE000EDFC)Reset: Halt core after reset via DEMCR.VC_CORERESET. >0x35 TIF>Reset: Reset device via AIRCR.SYSRESETREQ. -- CPU is running -- CPU_WriteMem(4 bytes @ 0xE000ED0C) >0x0D TIF> >0x28 TIF> -- CPU_ReadMem(4 bytes @ 0xE000EDF0) -- CPU_ReadMem(4 bytes @ 0xE000EDF0) -- CPU is running -- CPU_WriteMem(4 bytes @ 0xE000EDF0) -- CPU is running -- CPU_WriteMem(4 bytes @ 0xE000EDFC)
 -- CPU_ReadMem(4 bytes @ 0xE000EDF0) -- CPU_WriteMem(4 bytes @ 0xE0002000) -- CPU_ReadMem(4 bytes @ 0xE000EDFC) -- CPU_ReadMem(4 bytes @ 0xE0001000) (0092ms, 1063ms total)
TBF04 001:198 JLINK_Halt()  returns 0x00 (0000ms, 1063ms total)
TBF04 001:199 JLINK_ReadMemU32(0xE000EDF0, 0x0001 Items, ...) -- CPU_ReadMem(4 bytes @ 0xE000EDF0) - Data: 03 00 03 00  returns 1 (0001ms, 1064ms total)
TBF04 001:200 JLINK_WriteU32(0xE000EDF0, 0xA05F0003) -- CPU_WriteMem(4 bytes @ 0xE000EDF0)  returns 0 (0001ms, 1065ms total)
TBF04 001:201 JLINK_WriteU32(0xE000EDFC, 0x01000000) -- CPU_WriteMem(4 bytes @ 0xE000EDFC)  returns 0 (0001ms, 1066ms total)
TBF04 001:235 JLINK_GetHWStatus(...)  returns 0x00 (0001ms, 1067ms total)
TBF04 001:263 JLINK_GetNumBPUnits(Type = 0xFFFFFF00)  returns 0x06 (0000ms, 1067ms total)
TBF04 001:263 JLINK_GetNumBPUnits(Type = 0xF0)  returns 0x2000 (0000ms, 1067ms total)
TBF04 001:263 JLINK_GetNumWPUnits()  returns 0x04 (0000ms, 1067ms total)
TBF04 001:286 JLINK_GetSpeed()  returns 0x1770 (0000ms, 1067ms total)
TBF04 001:300 JLINK_ReadMemU32(0xE000E004, 0x0001 Items, ...) -- CPU_ReadMem(4 bytes @ 0xE000E004) - Data: 03 00 00 00  returns 1 (0001ms, 1068ms total)
TBF04 001:301 JLINK_ReadMemU32(0xE000E004, 0x0001 Items, ...) -- CPU_ReadMem(4 bytes @ 0xE000E004) - Data: 03 00 00 00  returns 1 (0000ms, 1068ms total)
TBF04 001:301 JLINK_WriteMemEx(0xE0001000, 0x001C Bytes, ..., Flags = 0x02000004) - Data: 01 00 00 00 00 00 00 00 00 00 00 00 00 00 00 00 ... -- CPU_WriteMem(28 bytes @ 0xE0001000)  returns 0x1C (0002ms, 1070ms total)
TBF04 001:303 JLINK_Halt()  returns 0x00 (0000ms, 1070ms total)
TBF04 001:303 JLINK_IsHalted()  returns TRUE (0000ms, 1070ms total)
TBF04 001:312 JLINK_WriteMem(0x20000000, 0x0188 Bytes, ...) - Data: 00 BE 0A E0 0D 78 2D 06 68 40 08 24 40 00 00 D3 ... -- CPU_WriteMem(392 bytes @ 0x20000000)  returns 0x188 (0004ms, 1074ms total)
TBF04 001:316 JLINK_WriteReg(R0, 0x08000000)  returns 0x00 (0000ms, 1074ms total)
TBF04 001:316 JLINK_WriteReg(R1, 0x007A1200)  returns 0x00 (0000ms, 1074ms total)
TBF04 001:316 JLINK_WriteReg(R2, 0x00000001)  returns 0x00 (0000ms, 1074ms total)
TBF04 001:316 JLINK_WriteReg(R3, 0x00000000)  returns 0x00 (0000ms, 1074ms total)
TBF04 001:316 JLINK_WriteReg(R4, 0x00000000)  returns 0x00 (0000ms, 1074ms total)
TBF04 001:316 JLINK_WriteReg(R5, 0x00000000)  returns 0x00 (0000ms, 1074ms total)
TBF04 001:316 JLINK_WriteReg(R6, 0x00000000)  returns 0x00 (0000ms, 1074ms total)
TBF04 001:316 JLINK_WriteReg(R7, 0x00000000)  returns 0x00 (0000ms, 1074ms total)
TBF04 001:316 JLINK_WriteReg(R8, 0x00000000)  returns 0x00 (0000ms, 1074ms total)
TBF04 001:316 JLINK_WriteReg(R9, 0x20000184)  returns 0x00 (0000ms, 1074ms total)
TBF04 001:316 JLINK_WriteReg(R10, 0x00000000)  returns 0x00 (0000ms, 1074ms total)
TBF04 001:316 JLINK_WriteReg(R11, 0x00000000)  returns 0x00 (0000ms, 1074ms total)
TBF04 001:316 JLINK_WriteReg(R12, 0x00000000)  returns 0x00 (0000ms, 1074ms total)
TBF04 001:316 JLINK_WriteReg(R13 (SP), 0x20001000)  returns 0x00 (0000ms, 1074ms total)
TBF04 001:316 JLINK_WriteReg(R14, 0x20000001)  returns 0x00 (0000ms, 1074ms total)
TBF04 001:316 JLINK_WriteReg(R15 (PC), 0x2000005E)  returns 0x00 (0000ms, 1074ms total)
TBF04 001:316 JLINK_WriteReg(XPSR, 0x01000000)  returns 0x00 (0000ms, 1074ms total)
TBF04 001:316 JLINK_WriteReg(MSP, 0x20001000)  returns 0x00 (0000ms, 1074ms total)
TBF04 001:316 JLINK_WriteReg(PSP, 0x20001000)  returns 0x00 (0000ms, 1074ms total)
TBF04 001:316 JLINK_WriteReg(CFBP, 0x00000000)  returns 0x00 (0000ms, 1074ms total)
TBF04 001:316 JLINK_SetBPEx(Addr = 0x20000000, Type = 0xFFFFFFF2) -- CPU_ReadMem(2 bytes @ 0x20000000)  returns 0x00000001 (0001ms, 1075ms total)
TBF04 001:317 JLINK_Go() -- CPU_WriteMem(2 bytes @ 0x20000000) -- CPU_ReadMem(4 bytes @ 0xE0001000) -- CPU_WriteMem(4 bytes @ 0xE0002008) -- CPU_WriteMem(4 bytes @ 0xE000200C) -- CPU_WriteMem(4 bytes @ 0xE0002010) -- CPU_WriteMem(4 bytes @ 0xE0002014) -- CPU_WriteMem(4 bytes @ 0xE0002018) -- CPU_WriteMem(4 bytes @ 0xE000201C) -- CPU_WriteMem(4 bytes @ 0xE0001004) (0010ms, 1085ms total)
TBF04 001:327 JLINK_IsHalted() -- CPU_ReadMem(2 bytes @ 0x20000000)  returns TRUE (0005ms, 1090ms total)
TBF04 001:332 JLINK_ReadReg(R15 (PC))  returns 0x20000000 (0000ms, 1085ms total)
TBF04 001:332 JLINK_ClrBPEx(BPHandle = 0x00000001)  returns 0x00 (0000ms, 1085ms total)
TBF04 001:332 JLINK_ReadReg(R0)  returns 0x00000000 (0000ms, 1085ms total)
TBF04 001:332 JLINK_WriteReg(R0, 0x08000000)  returns 0x00 (0000ms, 1085ms total)
TBF04 001:332 JLINK_WriteReg(R1, 0x00004000)  returns 0x00 (0000ms, 1085ms total)
TBF04 001:332 JLINK_WriteReg(R2, 0x000000FF)  returns 0x00 (0000ms, 1085ms total)
TBF04 001:332 JLINK_WriteReg(R3, 0x00000000)  returns 0x00 (0000ms, 1085ms total)
TBF04 001:332 JLINK_WriteReg(R4, 0x00000000)  returns 0x00 (0000ms, 1085ms total)
TBF04 001:332 JLINK_WriteReg(R5, 0x00000000)  returns 0x00 (0000ms, 1085ms total)
TBF04 001:332 JLINK_WriteReg(R6, 0x00000000)  returns 0x00 (0000ms, 1085ms total)
TBF04 001:332 JLINK_WriteReg(R7, 0x00000000)  returns 0x00 (0001ms, 1086ms total)
TBF04 001:333 JLINK_WriteReg(R8, 0x00000000)  returns 0x00 (0000ms, 1086ms total)
TBF04 001:333 JLINK_WriteReg(R9, 0x20000184)  returns 0x00 (0000ms, 1086ms total)
TBF04 001:333 JLINK_WriteReg(R10, 0x00000000)  returns 0x00 (0000ms, 1086ms total)
TBF04 001:333 JLINK_WriteReg(R11, 0x00000000)  returns 0x00 (0000ms, 1086ms total)
TBF04 001:333 JLINK_WriteReg(R12, 0x00000000)  returns 0x00 (0000ms, 1086ms total)
TBF04 001:333 JLINK_WriteReg(R13 (SP), 0x20001000)  returns 0x00 (0000ms, 1086ms total)
TBF04 001:333 JLINK_WriteReg(R14, 0x20000001)  returns 0x00 (0000ms, 1086ms total)
TBF04 001:333 JLINK_WriteReg(R15 (PC), 0x20000020)  returns 0x00 (0000ms, 1086ms total)
TBF04 001:333 JLINK_WriteReg(XPSR, 0x01000000)  returns 0x00 (0000ms, 1086ms total)
TBF04 001:333 JLINK_WriteReg(MSP, 0x20001000)  returns 0x00 (0000ms, 1086ms total)
TBF04 001:333 JLINK_WriteReg(PSP, 0x20001000)  returns 0x00 (0000ms, 1086ms total)
TBF04 001:333 JLINK_WriteReg(CFBP, 0x00000000)  returns 0x00 (0000ms, 1086ms total)
TBF04 001:333 JLINK_SetBPEx(Addr = 0x20000000, Type = 0xFFFFFFF2)  returns 0x00000002 (0000ms, 1086ms total)
TBF04 001:333 JLINK_Go() -- CPU_ReadMem(4 bytes @ 0xE0001000) (0005ms, 1091ms total)
TBF04 001:338 JLINK_IsHalted()  returns FALSE (0001ms, 1092ms total)
TBF04 001:439 JLINK_IsHalted() -- CPU_ReadMem(2 bytes @ 0x20000000)  returns TRUE (0005ms, 1096ms total)
TBF04 001:444 JLINK_ReadReg(R15 (PC))  returns 0x20000000 (0000ms, 1091ms total)
TBF04 001:444 JLINK_ClrBPEx(BPHandle = 0x00000002)  returns 0x00 (0000ms, 1091ms total)
TBF04 001:444 JLINK_ReadReg(R0)  returns 0x00000000 (0000ms, 1091ms total)
TBF04 001:445 JLINK_WriteReg(R0, 0x08004000)  returns 0x00 (0000ms, 1091ms total)
TBF04 001:445 JLINK_WriteReg(R1, 0x00004000)  returns 0x00 (0000ms, 1091ms total)
TBF04 001:445 JLINK_WriteReg(R2, 0x000000FF)  returns 0x00 (0001ms, 1092ms total)
TBF04 001:446 JLINK_WriteReg(R3, 0x00000000)  returns 0x00 (0000ms, 1092ms total)
TBF04 001:446 JLINK_WriteReg(R4, 0x00000000)  returns 0x00 (0000ms, 1092ms total)
TBF04 001:446 JLINK_WriteReg(R5, 0x00000000)  returns 0x00 (0000ms, 1092ms total)
TBF04 001:446 JLINK_WriteReg(R6, 0x00000000)  returns 0x00 (0000ms, 1092ms total)
TBF04 001:446 JLINK_WriteReg(R7, 0x00000000)  returns 0x00 (0000ms, 1092ms total)
TBF04 001:446 JLINK_WriteReg(R8, 0x00000000)  returns 0x00 (0000ms, 1092ms total)
TBF04 001:446 JLINK_WriteReg(R9, 0x20000184)  returns 0x00 (0000ms, 1092ms total)
TBF04 001:446 JLINK_WriteReg(R10, 0x00000000)  returns 0x00 (0000ms, 1092ms total)
TBF04 001:446 JLINK_WriteReg(R11, 0x00000000)  returns 0x00 (0000ms, 1092ms total)
TBF04 001:446 JLINK_WriteReg(R12, 0x00000000)  returns 0x00 (0000ms, 1092ms total)
TBF04 001:446 JLINK_WriteReg(R13 (SP), 0x20001000)  returns 0x00 (0000ms, 1092ms total)
TBF04 001:446 JLINK_WriteReg(R14, 0x20000001)  returns 0x00 (0000ms, 1092ms total)
TBF04 001:446 JLINK_WriteReg(R15 (PC), 0x20000020)  returns 0x00 (0000ms, 1092ms total)
TBF04 001:446 JLINK_WriteReg(XPSR, 0x01000000)  returns 0x00 (0000ms, 1092ms total)
TBF04 001:446 JLINK_WriteReg(MSP, 0x20001000)  returns 0x00 (0000ms, 1092ms total)
TBF04 001:446 JLINK_WriteReg(PSP, 0x20001000)  returns 0x00 (0000ms, 1092ms total)
TBF04 001:446 JLINK_WriteReg(CFBP, 0x00000000)  returns 0x00 (0000ms, 1092ms total)
TBF04 001:446 JLINK_SetBPEx(Addr = 0x20000000, Type = 0xFFFFFFF2)  returns 0x00000003 (0000ms, 1092ms total)
TBF04 001:446 JLINK_Go() -- CPU_ReadMem(4 bytes @ 0xE0001000) (0005ms, 1097ms total)
TBF04 001:451 JLINK_IsHalted()  returns FALSE (0001ms, 1098ms total)
TBF04 001:455 JLINK_IsHalted()  returns FALSE (0000ms, 1097ms total)
TBF04 001:458 JLINK_IsHalted()  returns FALSE (0000ms, 1097ms total)
TBF04 001:461 JLINK_IsHalted()  returns FALSE (0001ms, 1098ms total)
TBF04 001:464 JLINK_IsHalted()  returns FALSE (0001ms, 1098ms total)
TBF04 001:467 JLINK_IsHalted() -- CPU_ReadMem(2 bytes @ 0x20000000)  returns TRUE (0004ms, 1101ms total)
TBF04 001:471 JLINK_ReadReg(R15 (PC))  returns 0x20000000 (0001ms, 1098ms total)
TBF04 001:472 JLINK_ClrBPEx(BPHandle = 0x00000003)  returns 0x00 (0000ms, 1098ms total)
TBF04 001:472 JLINK_ReadReg(R0)  returns 0x00000000 (0000ms, 1098ms total)
TBF04 001:473 JLINK_WriteReg(R0, 0x08008000)  returns 0x00 (0000ms, 1098ms total)
TBF04 001:473 JLINK_WriteReg(R1, 0x00004000)  returns 0x00 (0000ms, 1098ms total)
TBF04 001:473 JLINK_WriteReg(R2, 0x000000FF)  returns 0x00 (0000ms, 1098ms total)
TBF04 001:473 JLINK_WriteReg(R3, 0x00000000)  returns 0x00 (0000ms, 1098ms total)
TBF04 001:473 JLINK_WriteReg(R4, 0x00000000)  returns 0x00 (0000ms, 1098ms total)
TBF04 001:473 JLINK_WriteReg(R5, 0x00000000)  returns 0x00 (0000ms, 1098ms total)
TBF04 001:473 JLINK_WriteReg(R6, 0x00000000)  returns 0x00 (0000ms, 1098ms total)
TBF04 001:473 JLINK_WriteReg(R7, 0x00000000)  returns 0x00 (0000ms, 1098ms total)
TBF04 001:473 JLINK_WriteReg(R8, 0x00000000)  returns 0x00 (0000ms, 1098ms total)
TBF04 001:473 JLINK_WriteReg(R9, 0x20000184)  returns 0x00 (0000ms, 1098ms total)
TBF04 001:473 JLINK_WriteReg(R10, 0x00000000)  returns 0x00 (0000ms, 1098ms total)
TBF04 001:473 JLINK_WriteReg(R11, 0x00000000)  returns 0x00 (0000ms, 1098ms total)
TBF04 001:473 JLINK_WriteReg(R12, 0x00000000)  returns 0x00 (0000ms, 1098ms total)
TBF04 001:473 JLINK_WriteReg(R13 (SP), 0x20001000)  returns 0x00 (0000ms, 1098ms total)
TBF04 001:473 JLINK_WriteReg(R14, 0x20000001)  returns 0x00 (0000ms, 1098ms total)
TBF04 001:473 JLINK_WriteReg(R15 (PC), 0x20000020)  returns 0x00 (0000ms, 1098ms total)
TBF04 001:473 JLINK_WriteReg(XPSR, 0x01000000)  returns 0x00 (0000ms, 1098ms total)
TBF04 001:473 JLINK_WriteReg(MSP, 0x20001000)  returns 0x00 (0000ms, 1098ms total)
TBF04 001:473 JLINK_WriteReg(PSP, 0x20001000)  returns 0x00 (0000ms, 1098ms total)
TBF04 001:473 JLINK_WriteReg(CFBP, 0x00000000)  returns 0x00 (0000ms, 1098ms total)
TBF04 001:474 JLINK_SetBPEx(Addr = 0x20000000, Type = 0xFFFFFFF2)  returns 0x00000004 (0000ms, 1099ms total)
TBF04 001:474 JLINK_Go() -- CPU_ReadMem(4 bytes @ 0xE0001000) (0005ms, 1104ms total)
TBF04 001:479 JLINK_IsHalted()  returns FALSE (0001ms, 1105ms total)
TBF04 001:482 JLINK_IsHalted()  returns FALSE (0001ms, 1105ms total)
TBF04 001:485 JLINK_IsHalted()  returns FALSE (0000ms, 1104ms total)
TBF04 001:487 JLINK_IsHalted()  returns FALSE (0000ms, 1104ms total)
TBF04 001:490 JLINK_IsHalted()  returns FALSE (0000ms, 1104ms total)
TBF04 001:492 JLINK_IsHalted()  returns FALSE (0000ms, 1104ms total)
TBF04 001:495 JLINK_IsHalted() -- CPU_ReadMem(2 bytes @ 0x20000000)  returns TRUE (0005ms, 1109ms total)
TBF04 001:500 JLINK_ReadReg(R15 (PC))  returns 0x20000000 (0000ms, 1104ms total)
TBF04 001:500 JLINK_ClrBPEx(BPHandle = 0x00000004)  returns 0x00 (0000ms, 1104ms total)
TBF04 001:500 JLINK_ReadReg(R0)  returns 0x00000000 (0000ms, 1104ms total)
TBF04 001:500 JLINK_WriteReg(R0, 0x00000001)  returns 0x00 (0000ms, 1104ms total)
TBF04 001:500 JLINK_WriteReg(R1, 0x00004000)  returns 0x00 (0000ms, 1104ms total)
TBF04 001:500 JLINK_WriteReg(R2, 0x000000FF)  returns 0x00 (0000ms, 1104ms total)
TBF04 001:500 JLINK_WriteReg(R3, 0x00000000)  returns 0x00 (0000ms, 1104ms total)
TBF04 001:500 JLINK_WriteReg(R4, 0x00000000)  returns 0x00 (0000ms, 1104ms total)
TBF04 001:500 JLINK_WriteReg(R5, 0x00000000)  returns 0x00 (0000ms, 1104ms total)
TBF04 001:500 JLINK_WriteReg(R6, 0x00000000)  returns 0x00 (0000ms, 1104ms total)
TBF04 001:500 JLINK_WriteReg(R7, 0x00000000)  returns 0x00 (0000ms, 1104ms total)
TBF04 001:500 JLINK_WriteReg(R8, 0x00000000)  returns 0x00 (0001ms, 1105ms total)
TBF04 001:501 JLINK_WriteReg(R9, 0x20000184)  returns 0x00 (0000ms, 1105ms total)
TBF04 001:501 JLINK_WriteReg(R10, 0x00000000)  returns 0x00 (0000ms, 1105ms total)
TBF04 001:501 JLINK_WriteReg(R11, 0x00000000)  returns 0x00 (0000ms, 1105ms total)
TBF04 001:501 JLINK_WriteReg(R12, 0x00000000)  returns 0x00 (0000ms, 1105ms total)
TBF04 001:501 JLINK_WriteReg(R13 (SP), 0x20001000)  returns 0x00 (0000ms, 1105ms total)
TBF04 001:501 JLINK_WriteReg(R14, 0x20000001)  returns 0x00 (0000ms, 1105ms total)
TBF04 001:501 JLINK_WriteReg(R15 (PC), 0x2000008C)  returns 0x00 (0000ms, 1105ms total)
TBF04 001:501 JLINK_WriteReg(XPSR, 0x01000000)  returns 0x00 (0000ms, 1105ms total)
TBF04 001:501 JLINK_WriteReg(MSP, 0x20001000)  returns 0x00 (0000ms, 1105ms total)
TBF04 001:501 JLINK_WriteReg(PSP, 0x20001000)  returns 0x00 (0000ms, 1105ms total)
TBF04 001:501 JLINK_WriteReg(CFBP, 0x00000000)  returns 0x00 (0000ms, 1105ms total)
TBF04 001:501 JLINK_SetBPEx(Addr = 0x20000000, Type = 0xFFFFFFF2)  returns 0x00000005 (0000ms, 1105ms total)
TBF04 001:501 JLINK_Go() -- CPU_ReadMem(4 bytes @ 0xE0001000) (0005ms, 1110ms total)
TBF04 001:506 JLINK_IsHalted() -- CPU_ReadMem(2 bytes @ 0x20000000)  returns TRUE (0005ms, 1115ms total)
TBF04 001:511 JLINK_ReadReg(R15 (PC))  returns 0x20000000 (0000ms, 1110ms total)
TBF04 001:511 JLINK_ClrBPEx(BPHandle = 0x00000005)  returns 0x00 (0000ms, 1110ms total)
TBF04 001:511 JLINK_ReadReg(R0)  returns 0x00000000 (0000ms, 1110ms total)
TBF04 001:578 JLINK_WriteMem(0x20000000, 0x0188 Bytes, ...) - Data: 00 BE 0A E0 0D 78 2D 06 68 40 08 24 40 00 00 D3 ... -- CPU_WriteMem(392 bytes @ 0x20000000)  returns 0x188 (0003ms, 1113ms total)
TBF04 001:581 JLINK_WriteReg(R0, 0x08000000)  returns 0x00 (0000ms, 1113ms total)
TBF04 001:581 JLINK_WriteReg(R1, 0x007A1200)  returns 0x00 (0000ms, 1113ms total)
TBF04 001:581 JLINK_WriteReg(R2, 0x00000002)  returns 0x00 (0000ms, 1113ms total)
TBF04 001:582 JLINK_WriteReg(R3, 0x00000000)  returns 0x00 (0000ms, 1114ms total)
TBF04 001:582 JLINK_WriteReg(R4, 0x00000000)  returns 0x00 (0000ms, 1114ms total)
TBF04 001:582 JLINK_WriteReg(R5, 0x00000000)  returns 0x00 (0000ms, 1114ms total)
TBF04 001:582 JLINK_WriteReg(R6, 0x00000000)  returns 0x00 (0000ms, 1114ms total)
TBF04 001:582 JLINK_WriteReg(R7, 0x00000000)  returns 0x00 (0000ms, 1114ms total)
TBF04 001:582 JLINK_WriteReg(R8, 0x00000000)  returns 0x00 (0000ms, 1114ms total)
TBF04 001:582 JLINK_WriteReg(R9, 0x20000184)  returns 0x00 (0000ms, 1114ms total)
TBF04 001:582 JLINK_WriteReg(R10, 0x00000000)  returns 0x00 (0000ms, 1114ms total)
TBF04 001:582 JLINK_WriteReg(R11, 0x00000000)  returns 0x00 (0000ms, 1114ms total)
TBF04 001:582 JLINK_WriteReg(R12, 0x00000000)  returns 0x00 (0000ms, 1114ms total)
TBF04 001:582 JLINK_WriteReg(R13 (SP), 0x20001000)  returns 0x00 (0000ms, 1114ms total)
TBF04 001:582 JLINK_WriteReg(R14, 0x20000001)  returns 0x00 (0000ms, 1114ms total)
TBF04 001:582 JLINK_WriteReg(R15 (PC), 0x2000005E)  returns 0x00 (0000ms, 1114ms total)
TBF04 001:582 JLINK_WriteReg(XPSR, 0x01000000)  returns 0x00 (0000ms, 1114ms total)
TBF04 001:582 JLINK_WriteReg(MSP, 0x20001000)  returns 0x00 (0000ms, 1114ms total)
TBF04 001:582 JLINK_WriteReg(PSP, 0x20001000)  returns 0x00 (0000ms, 1114ms total)
TBF04 001:582 JLINK_WriteReg(CFBP, 0x00000000)  returns 0x00 (0000ms, 1114ms total)
TBF04 001:582 JLINK_SetBPEx(Addr = 0x20000000, Type = 0xFFFFFFF2) -- CPU_ReadMem(2 bytes @ 0x20000000)  returns 0x00000006 (0001ms, 1115ms total)
TBF04 001:583 JLINK_Go() -- CPU_WriteMem(2 bytes @ 0x20000000) -- CPU_ReadMem(4 bytes @ 0xE0001000) (0006ms, 1121ms total)
TBF04 001:589 JLINK_IsHalted() -- CPU_ReadMem(2 bytes @ 0x20000000)  returns TRUE (0005ms, 1126ms total)
TBF04 001:594 JLINK_ReadReg(R15 (PC))  returns 0x20000000 (0000ms, 1121ms total)
TBF04 001:594 JLINK_ClrBPEx(BPHandle = 0x00000006)  returns 0x00 (0000ms, 1121ms total)
TBF04 001:594 JLINK_ReadReg(R0)  returns 0x00000000 (0000ms, 1121ms total)
TBF04 001:595 JLINK_WriteMem(0x20000188, 0x0278 Bytes, ...) - Data: 00 00 02 20 19 03 00 08 21 03 00 08 23 03 00 08 ... -- CPU_WriteMem(632 bytes @ 0x20000188)  returns 0x278 (0005ms, 1126ms total)
TBF04 001:600 JLINK_WriteMem(0x20000400, 0x0188 Bytes, ...) - Data: 6F 29 01 F0 70 80 78 29 00 F0 43 81 E9 29 01 F0 ... -- CPU_WriteMem(392 bytes @ 0x20000400)  returns 0x188 (0003ms, 1129ms total)
TBF04 001:603 JLINK_WriteReg(R0, 0x08000000)  returns 0x00 (0000ms, 1129ms total)
TBF04 001:603 JLINK_WriteReg(R1, 0x00000400)  returns 0x00 (0000ms, 1129ms total)
TBF04 001:603 JLINK_WriteReg(R2, 0x20000188)  returns 0x00 (0000ms, 1129ms total)
TBF04 001:603 JLINK_WriteReg(R3, 0x00000000)  returns 0x00 (0000ms, 1129ms total)
TBF04 001:603 JLINK_WriteReg(R4, 0x00000000)  returns 0x00 (0000ms, 1129ms total)
TBF04 001:603 JLINK_WriteReg(R5, 0x00000000)  returns 0x00 (0000ms, 1129ms total)
TBF04 001:603 JLINK_WriteReg(R6, 0x00000000)  returns 0x00 (0000ms, 1129ms total)
TBF04 001:603 JLINK_WriteReg(R7, 0x00000000)  returns 0x00 (0001ms, 1130ms total)
TBF04 001:604 JLINK_WriteReg(R8, 0x00000000)  returns 0x00 (0000ms, 1130ms total)
TBF04 001:604 JLINK_WriteReg(R9, 0x20000184)  returns 0x00 (0000ms, 1130ms total)
TBF04 001:604 JLINK_WriteReg(R10, 0x00000000)  returns 0x00 (0000ms, 1130ms total)
TBF04 001:604 JLINK_WriteReg(R11, 0x00000000)  returns 0x00 (0000ms, 1130ms total)
TBF04 001:604 JLINK_WriteReg(R12, 0x00000000)  returns 0x00 (0000ms, 1130ms total)
TBF04 001:604 JLINK_WriteReg(R13 (SP), 0x20001000)  returns 0x00 (0000ms, 1130ms total)
TBF04 001:604 JLINK_WriteReg(R14, 0x20000001)  returns 0x00 (0000ms, 1130ms total)
TBF04 001:604 JLINK_WriteReg(R15 (PC), 0x20000112)  returns 0x00 (0000ms, 1130ms total)
TBF04 001:604 JLINK_WriteReg(XPSR, 0x01000000)  returns 0x00 (0000ms, 1130ms total)
TBF04 001:604 JLINK_WriteReg(MSP, 0x20001000)  returns 0x00 (0000ms, 1130ms total)
TBF04 001:604 JLINK_WriteReg(PSP, 0x20001000)  returns 0x00 (0000ms, 1130ms total)
TBF04 001:604 JLINK_WriteReg(CFBP, 0x00000000)  returns 0x00 (0000ms, 1130ms total)
TBF04 001:604 JLINK_SetBPEx(Addr = 0x20000000, Type = 0xFFFFFFF2)  returns 0x00000007 (0000ms, 1130ms total)
TBF04 001:604 JLINK_Go() -- CPU_ReadMem(4 bytes @ 0xE0001000) (0005ms, 1135ms total)
TBF04 001:609 JLINK_IsHalted()  returns FALSE (0001ms, 1136ms total)
TBF04 001:614 JLINK_IsHalted() -- CPU_ReadMem(2 bytes @ 0x20000000)  returns TRUE (0004ms, 1139ms total)
TBF04 001:618 JLINK_ReadReg(R15 (PC))  returns 0x20000000 (0000ms, 1135ms total)
TBF04 001:618 JLINK_ClrBPEx(BPHandle = 0x00000007)  returns 0x00 (0001ms, 1136ms total)
TBF04 001:619 JLINK_ReadReg(R0)  returns 0x00000000 (0000ms, 1136ms total)
TBF04 001:620 JLINK_WriteMem(0x20000188, 0x0278 Bytes, ...) - Data: 07 4B 7B 44 2A 46 69 46 01 90 30 46 00 F0 B7 FE ... -- CPU_WriteMem(632 bytes @ 0x20000188)  returns 0x278 (0005ms, 1141ms total)
TBF04 001:625 JLINK_WriteMem(0x20000400, 0x0188 Bytes, ...) - Data: 1A D0 4F F4 80 70 06 43 0D B3 A5 F1 41 00 19 28 ... -- CPU_WriteMem(392 bytes @ 0x20000400)  returns 0x188 (0003ms, 1144ms total)
TBF04 001:628 JLINK_WriteReg(R0, 0x08000400)  returns 0x00 (0000ms, 1144ms total)
TBF04 001:628 JLINK_WriteReg(R1, 0x00000400)  returns 0x00 (0000ms, 1144ms total)
TBF04 001:628 JLINK_WriteReg(R2, 0x20000188)  returns 0x00 (0000ms, 1144ms total)
TBF04 001:628 JLINK_WriteReg(R3, 0x00000000)  returns 0x00 (0000ms, 1144ms total)
TBF04 001:628 JLINK_WriteReg(R4, 0x00000000)  returns 0x00 (0000ms, 1144ms total)
TBF04 001:628 JLINK_WriteReg(R5, 0x00000000)  returns 0x00 (0000ms, 1144ms total)
TBF04 001:628 JLINK_WriteReg(R6, 0x00000000)  returns 0x00 (0000ms, 1144ms total)
TBF04 001:628 JLINK_WriteReg(R7, 0x00000000)  returns 0x00 (0000ms, 1144ms total)
TBF04 001:628 JLINK_WriteReg(R8, 0x00000000)  returns 0x00 (0000ms, 1144ms total)
TBF04 001:628 JLINK_WriteReg(R9, 0x20000184)  returns 0x00 (0000ms, 1144ms total)
TBF04 001:628 JLINK_WriteReg(R10, 0x00000000)  returns 0x00 (0000ms, 1144ms total)
TBF04 001:628 JLINK_WriteReg(R11, 0x00000000)  returns 0x00 (0000ms, 1144ms total)
TBF04 001:628 JLINK_WriteReg(R12, 0x00000000)  returns 0x00 (0000ms, 1144ms total)
TBF04 001:628 JLINK_WriteReg(R13 (SP), 0x20001000)  returns 0x00 (0000ms, 1144ms total)
TBF04 001:628 JLINK_WriteReg(R14, 0x20000001)  returns 0x00 (0000ms, 1144ms total)
TBF04 001:628 JLINK_WriteReg(R15 (PC), 0x20000112)  returns 0x00 (0001ms, 1145ms total)
TBF04 001:629 JLINK_WriteReg(XPSR, 0x01000000)  returns 0x00 (0000ms, 1145ms total)
TBF04 001:629 JLINK_WriteReg(MSP, 0x20001000)  returns 0x00 (0000ms, 1145ms total)
TBF04 001:629 JLINK_WriteReg(PSP, 0x20001000)  returns 0x00 (0000ms, 1145ms total)
TBF04 001:629 JLINK_WriteReg(CFBP, 0x00000000)  returns 0x00 (0000ms, 1145ms total)
TBF04 001:629 JLINK_SetBPEx(Addr = 0x20000000, Type = 0xFFFFFFF2)  returns 0x00000008 (0000ms, 1145ms total)
TBF04 001:629 JLINK_Go() -- CPU_ReadMem(4 bytes @ 0xE0001000) (0005ms, 1150ms total)
TBF04 001:634 JLINK_IsHalted()  returns FALSE (0001ms, 1151ms total)
TBF04 001:637 JLINK_IsHalted()  returns FALSE (0001ms, 1151ms total)
TBF04 001:640 JLINK_IsHalted() -- CPU_ReadMem(2 bytes @ 0x20000000)  returns TRUE (0005ms, 1155ms total)
TBF04 001:645 JLINK_ReadReg(R15 (PC))  returns 0x20000000 (0000ms, 1150ms total)
TBF04 001:645 JLINK_ClrBPEx(BPHandle = 0x00000008)  returns 0x00 (0000ms, 1150ms total)
TBF04 001:645 JLINK_ReadReg(R0)  returns 0x00000000 (0000ms, 1150ms total)
TBF04 001:647 JLINK_WriteMem(0x20000188, 0x0278 Bytes, ...) - Data: 08 43 54 21 20 65 38 46 00 F0 F8 F8 3A 46 29 46 ... -- CPU_WriteMem(632 bytes @ 0x20000188)  returns 0x278 (0005ms, 1155ms total)
TBF04 001:652 JLINK_WriteMem(0x20000400, 0x0188 Bytes, ...) - Data: 93 43 13 EA CC 13 0B D1 50 F8 04 2B 51 F8 04 3B ... -- CPU_WriteMem(392 bytes @ 0x20000400)  returns 0x188 (0004ms, 1159ms total)
TBF04 001:656 JLINK_WriteReg(R0, 0x08000800)  returns 0x00 (0000ms, 1159ms total)
TBF04 001:656 JLINK_WriteReg(R1, 0x00000400)  returns 0x00 (0000ms, 1159ms total)
TBF04 001:656 JLINK_WriteReg(R2, 0x20000188)  returns 0x00 (0000ms, 1159ms total)
TBF04 001:656 JLINK_WriteReg(R3, 0x00000000)  returns 0x00 (0000ms, 1159ms total)
TBF04 001:656 JLINK_WriteReg(R4, 0x00000000)  returns 0x00 (0000ms, 1159ms total)
TBF04 001:656 JLINK_WriteReg(R5, 0x00000000)  returns 0x00 (0000ms, 1159ms total)
TBF04 001:656 JLINK_WriteReg(R6, 0x00000000)  returns 0x00 (0000ms, 1159ms total)
TBF04 001:656 JLINK_WriteReg(R7, 0x00000000)  returns 0x00 (0000ms, 1159ms total)
TBF04 001:656 JLINK_WriteReg(R8, 0x00000000)  returns 0x00 (0000ms, 1159ms total)
TBF04 001:656 JLINK_WriteReg(R9, 0x20000184)  returns 0x00 (0000ms, 1159ms total)
TBF04 001:656 JLINK_WriteReg(R10, 0x00000000)  returns 0x00 (0000ms, 1159ms total)
TBF04 001:656 JLINK_WriteReg(R11, 0x00000000)  returns 0x00 (0000ms, 1159ms total)
TBF04 001:656 JLINK_WriteReg(R12, 0x00000000)  returns 0x00 (0000ms, 1159ms total)
TBF04 001:656 JLINK_WriteReg(R13 (SP), 0x20001000)  returns 0x00 (0000ms, 1159ms total)
TBF04 001:656 JLINK_WriteReg(R14, 0x20000001)  returns 0x00 (0000ms, 1159ms total)
TBF04 001:656 JLINK_WriteReg(R15 (PC), 0x20000112)  returns 0x00 (0000ms, 1159ms total)
TBF04 001:656 JLINK_WriteReg(XPSR, 0x01000000)  returns 0x00 (0000ms, 1159ms total)
TBF04 001:656 JLINK_WriteReg(MSP, 0x20001000)  returns 0x00 (0000ms, 1159ms total)
TBF04 001:656 JLINK_WriteReg(PSP, 0x20001000)  returns 0x00 (0000ms, 1159ms total)
TBF04 001:656 JLINK_WriteReg(CFBP, 0x00000000)  returns 0x00 (0000ms, 1159ms total)
TBF04 001:656 JLINK_SetBPEx(Addr = 0x20000000, Type = 0xFFFFFFF2)  returns 0x00000009 (0000ms, 1159ms total)
TBF04 001:656 JLINK_Go() -- CPU_ReadMem(4 bytes @ 0xE0001000) (0006ms, 1165ms total)
TBF04 001:662 JLINK_IsHalted()  returns FALSE (0000ms, 1165ms total)
TBF04 001:666 JLINK_IsHalted() -- CPU_ReadMem(2 bytes @ 0x20000000)  returns TRUE (0005ms, 1170ms total)
TBF04 001:671 JLINK_ReadReg(R15 (PC))  returns 0x20000000 (0000ms, 1165ms total)
TBF04 001:671 JLINK_ClrBPEx(BPHandle = 0x00000009)  returns 0x00 (0000ms, 1165ms total)
TBF04 001:671 JLINK_ReadReg(R0)  returns 0x00000000 (0000ms, 1165ms total)
TBF04 001:672 JLINK_WriteMem(0x20000188, 0x0278 Bytes, ...) - Data: 6D 1E F6 D5 70 BD 09 68 4A 05 01 D5 40 B2 70 47 ... -- CPU_WriteMem(632 bytes @ 0x20000188)  returns 0x278 (0005ms, 1170ms total)
TBF04 001:677 JLINK_WriteMem(0x20000400, 0x0188 Bytes, ...) - Data: 00 22 00 92 15 46 1E E0 75 1E 05 D4 00 F0 68 FE ... -- CPU_WriteMem(392 bytes @ 0x20000400)  returns 0x188 (0004ms, 1174ms total)
TBF04 001:681 JLINK_WriteReg(R0, 0x08000C00)  returns 0x00 (0000ms, 1174ms total)
TBF04 001:681 JLINK_WriteReg(R1, 0x00000400)  returns 0x00 (0000ms, 1174ms total)
TBF04 001:681 JLINK_WriteReg(R2, 0x20000188)  returns 0x00 (0000ms, 1174ms total)
TBF04 001:681 JLINK_WriteReg(R3, 0x00000000)  returns 0x00 (0000ms, 1174ms total)
TBF04 001:681 JLINK_WriteReg(R4, 0x00000000)  returns 0x00 (0000ms, 1174ms total)
TBF04 001:681 JLINK_WriteReg(R5, 0x00000000)  returns 0x00 (0000ms, 1174ms total)
TBF04 001:681 JLINK_WriteReg(R6, 0x00000000)  returns 0x00 (0000ms, 1174ms total)
TBF04 001:681 JLINK_WriteReg(R7, 0x00000000)  returns 0x00 (0000ms, 1174ms total)
TBF04 001:681 JLINK_WriteReg(R8, 0x00000000)  returns 0x00 (0000ms, 1174ms total)
TBF04 001:681 JLINK_WriteReg(R9, 0x20000184)  returns 0x00 (0000ms, 1174ms total)
TBF04 001:681 JLINK_WriteReg(R10, 0x00000000)  returns 0x00 (0000ms, 1174ms total)
TBF04 001:681 JLINK_WriteReg(R11, 0x00000000)  returns 0x00 (0000ms, 1174ms total)
TBF04 001:681 JLINK_WriteReg(R12, 0x00000000)  returns 0x00 (0000ms, 1174ms total)
TBF04 001:681 JLINK_WriteReg(R13 (SP), 0x20001000)  returns 0x00 (0000ms, 1174ms total)
TBF04 001:681 JLINK_WriteReg(R14, 0x20000001)  returns 0x00 (0000ms, 1174ms total)
TBF04 001:681 JLINK_WriteReg(R15 (PC), 0x20000112)  returns 0x00 (0000ms, 1174ms total)
TBF04 001:681 JLINK_WriteReg(XPSR, 0x01000000)  returns 0x00 (0000ms, 1174ms total)
TBF04 001:681 JLINK_WriteReg(MSP, 0x20001000)  returns 0x00 (0000ms, 1174ms total)
TBF04 001:681 JLINK_WriteReg(PSP, 0x20001000)  returns 0x00 (0000ms, 1174ms total)
TBF04 001:681 JLINK_WriteReg(CFBP, 0x00000000)  returns 0x00 (0000ms, 1174ms total)
TBF04 001:681 JLINK_SetBPEx(Addr = 0x20000000, Type = 0xFFFFFFF2)  returns 0x0000000A (0000ms, 1174ms total)
TBF04 001:681 JLINK_Go() -- CPU_ReadMem(4 bytes @ 0xE0001000) (0005ms, 1179ms total)
TBF04 001:686 JLINK_IsHalted()  returns FALSE (0001ms, 1180ms total)
TBF04 001:691 JLINK_IsHalted() -- CPU_ReadMem(2 bytes @ 0x20000000)  returns TRUE (0005ms, 1184ms total)
TBF04 001:696 JLINK_ReadReg(R15 (PC))  returns 0x20000000 (0000ms, 1179ms total)
TBF04 001:696 JLINK_ClrBPEx(BPHandle = 0x0000000A)  returns 0x00 (0000ms, 1179ms total)
TBF04 001:696 JLINK_ReadReg(R0)  returns 0x00000000 (0000ms, 1179ms total)
TBF04 001:697 JLINK_WriteMem(0x20000188, 0x0278 Bytes, ...) - Data: AB FE DD E9 0C 70 4D 46 00 26 83 46 20 78 00 07 ... -- CPU_WriteMem(632 bytes @ 0x20000188)  returns 0x278 (0004ms, 1183ms total)
TBF04 001:701 JLINK_WriteMem(0x20000400, 0x0188 Bytes, ...) - Data: 90 47 6D 1C 4D 45 F7 D3 08 F1 01 00 B0 42 80 46 ... -- CPU_WriteMem(392 bytes @ 0x20000400)  returns 0x188 (0004ms, 1187ms total)
TBF04 001:705 JLINK_WriteReg(R0, 0x08001000)  returns 0x00 (0000ms, 1187ms total)
TBF04 001:705 JLINK_WriteReg(R1, 0x00000400)  returns 0x00 (0000ms, 1187ms total)
TBF04 001:705 JLINK_WriteReg(R2, 0x20000188)  returns 0x00 (0000ms, 1187ms total)
TBF04 001:705 JLINK_WriteReg(R3, 0x00000000)  returns 0x00 (0000ms, 1187ms total)
TBF04 001:705 JLINK_WriteReg(R4, 0x00000000)  returns 0x00 (0000ms, 1187ms total)
TBF04 001:705 JLINK_WriteReg(R5, 0x00000000)  returns 0x00 (0000ms, 1187ms total)
TBF04 001:705 JLINK_WriteReg(R6, 0x00000000)  returns 0x00 (0000ms, 1187ms total)
TBF04 001:705 JLINK_WriteReg(R7, 0x00000000)  returns 0x00 (0000ms, 1187ms total)
TBF04 001:705 JLINK_WriteReg(R8, 0x00000000)  returns 0x00 (0000ms, 1187ms total)
TBF04 001:705 JLINK_WriteReg(R9, 0x20000184)  returns 0x00 (0000ms, 1187ms total)
TBF04 001:705 JLINK_WriteReg(R10, 0x00000000)  returns 0x00 (0000ms, 1187ms total)
TBF04 001:705 JLINK_WriteReg(R11, 0x00000000)  returns 0x00 (0000ms, 1187ms total)
TBF04 001:705 JLINK_WriteReg(R12, 0x00000000)  returns 0x00 (0000ms, 1187ms total)
TBF04 001:705 JLINK_WriteReg(R13 (SP), 0x20001000)  returns 0x00 (0000ms, 1187ms total)
TBF04 001:705 JLINK_WriteReg(R14, 0x20000001)  returns 0x00 (0000ms, 1187ms total)
TBF04 001:705 JLINK_WriteReg(R15 (PC), 0x20000112)  returns 0x00 (0000ms, 1187ms total)
TBF04 001:705 JLINK_WriteReg(XPSR, 0x01000000)  returns 0x00 (0000ms, 1187ms total)
TBF04 001:705 JLINK_WriteReg(MSP, 0x20001000)  returns 0x00 (0000ms, 1187ms total)
TBF04 001:705 JLINK_WriteReg(PSP, 0x20001000)  returns 0x00 (0000ms, 1187ms total)
TBF04 001:705 JLINK_WriteReg(CFBP, 0x00000000)  returns 0x00 (0000ms, 1187ms total)
TBF04 001:705 JLINK_SetBPEx(Addr = 0x20000000, Type = 0xFFFFFFF2)  returns 0x0000000B (0000ms, 1187ms total)
TBF04 001:705 JLINK_Go() -- CPU_ReadMem(4 bytes @ 0xE0001000) (0006ms, 1193ms total)
TBF04 001:711 JLINK_IsHalted()  returns FALSE (0001ms, 1194ms total)
TBF04 001:714 JLINK_IsHalted()  returns FALSE (0000ms, 1193ms total)
TBF04 001:716 JLINK_IsHalted() -- CPU_ReadMem(2 bytes @ 0x20000000)  returns TRUE (0005ms, 1198ms total)
TBF04 001:721 JLINK_ReadReg(R15 (PC))  returns 0x20000000 (0000ms, 1193ms total)
TBF04 001:721 JLINK_ClrBPEx(BPHandle = 0x0000000B)  returns 0x00 (0000ms, 1193ms total)
TBF04 001:721 JLINK_ReadReg(R0)  returns 0x00000000 (0000ms, 1193ms total)
TBF04 001:722 JLINK_WriteMem(0x20000188, 0x0278 Bytes, ...) - Data: 01 03 12 D5 20 F4 00 20 E0 60 81 06 06 D4 E2 6A ... -- CPU_WriteMem(632 bytes @ 0x20000188)  returns 0x278 (0005ms, 1198ms total)
TBF04 001:727 JLINK_WriteMem(0x20000400, 0x0188 Bytes, ...) - Data: 08 D0 E0 69 FE F7 62 FE 20 61 18 B1 E0 68 40 F4 ... -- CPU_WriteMem(392 bytes @ 0x20000400)  returns 0x188 (0004ms, 1202ms total)
TBF04 001:731 JLINK_WriteReg(R0, 0x08001400)  returns 0x00 (0000ms, 1202ms total)
TBF04 001:731 JLINK_WriteReg(R1, 0x00000400)  returns 0x00 (0000ms, 1202ms total)
TBF04 001:731 JLINK_WriteReg(R2, 0x20000188)  returns 0x00 (0000ms, 1202ms total)
TBF04 001:731 JLINK_WriteReg(R3, 0x00000000)  returns 0x00 (0000ms, 1202ms total)
TBF04 001:731 JLINK_WriteReg(R4, 0x00000000)  returns 0x00 (0000ms, 1202ms total)
TBF04 001:731 JLINK_WriteReg(R5, 0x00000000)  returns 0x00 (0000ms, 1202ms total)
TBF04 001:731 JLINK_WriteReg(R6, 0x00000000)  returns 0x00 (0000ms, 1202ms total)
TBF04 001:731 JLINK_WriteReg(R7, 0x00000000)  returns 0x00 (0000ms, 1202ms total)
TBF04 001:731 JLINK_WriteReg(R8, 0x00000000)  returns 0x00 (0000ms, 1202ms total)
TBF04 001:731 JLINK_WriteReg(R9, 0x20000184)  returns 0x00 (0000ms, 1202ms total)
TBF04 001:731 JLINK_WriteReg(R10, 0x00000000)  returns 0x00 (0000ms, 1202ms total)
TBF04 001:731 JLINK_WriteReg(R11, 0x00000000)  returns 0x00 (0000ms, 1202ms total)
TBF04 001:731 JLINK_WriteReg(R12, 0x00000000)  returns 0x00 (0000ms, 1202ms total)
TBF04 001:731 JLINK_WriteReg(R13 (SP), 0x20001000)  returns 0x00 (0000ms, 1202ms total)
TBF04 001:731 JLINK_WriteReg(R14, 0x20000001)  returns 0x00 (0000ms, 1202ms total)
TBF04 001:731 JLINK_WriteReg(R15 (PC), 0x20000112)  returns 0x00 (0000ms, 1202ms total)
TBF04 001:731 JLINK_WriteReg(XPSR, 0x01000000)  returns 0x00 (0000ms, 1202ms total)
TBF04 001:731 JLINK_WriteReg(MSP, 0x20001000)  returns 0x00 (0000ms, 1202ms total)
TBF04 001:731 JLINK_WriteReg(PSP, 0x20001000)  returns 0x00 (0000ms, 1202ms total)
TBF04 001:731 JLINK_WriteReg(CFBP, 0x00000000)  returns 0x00 (0001ms, 1203ms total)
TBF04 001:732 JLINK_SetBPEx(Addr = 0x20000000, Type = 0xFFFFFFF2)  returns 0x0000000C (0000ms, 1203ms total)
TBF04 001:732 JLINK_Go() -- CPU_ReadMem(4 bytes @ 0xE0001000) (0005ms, 1208ms total)
TBF04 001:737 JLINK_IsHalted()  returns FALSE (0001ms, 1209ms total)
TBF04 001:740 JLINK_IsHalted()  returns FALSE (0001ms, 1209ms total)
TBF04 001:743 JLINK_IsHalted() -- CPU_ReadMem(2 bytes @ 0x20000000)  returns TRUE (0005ms, 1213ms total)
TBF04 001:748 JLINK_ReadReg(R15 (PC))  returns 0x20000000 (0000ms, 1208ms total)
TBF04 001:748 JLINK_ClrBPEx(BPHandle = 0x0000000C)  returns 0x00 (0000ms, 1208ms total)
TBF04 001:748 JLINK_ReadReg(R0)  returns 0x00000000 (0000ms, 1208ms total)
TBF04 001:749 JLINK_WriteMem(0x20000188, 0x0278 Bytes, ...) - Data: A2 69 11 44 22 69 89 1A 81 42 00 DD 08 46 05 44 ... -- CPU_WriteMem(632 bytes @ 0x20000188)  returns 0x278 (0005ms, 1213ms total)
TBF04 001:754 JLINK_WriteMem(0x20000400, 0x0188 Bytes, ...) - Data: 11 FF 20 B1 21 48 78 44 54 38 00 F0 6E FB 18 48 ... -- CPU_WriteMem(392 bytes @ 0x20000400)  returns 0x188 (0003ms, 1216ms total)
TBF04 001:757 JLINK_WriteReg(R0, 0x08001800)  returns 0x00 (0000ms, 1216ms total)
TBF04 001:757 JLINK_WriteReg(R1, 0x00000400)  returns 0x00 (0001ms, 1217ms total)
TBF04 001:758 JLINK_WriteReg(R2, 0x20000188)  returns 0x00 (0000ms, 1217ms total)
TBF04 001:758 JLINK_WriteReg(R3, 0x00000000)  returns 0x00 (0000ms, 1217ms total)
TBF04 001:758 JLINK_WriteReg(R4, 0x00000000)  returns 0x00 (0000ms, 1217ms total)
TBF04 001:758 JLINK_WriteReg(R5, 0x00000000)  returns 0x00 (0000ms, 1217ms total)
TBF04 001:758 JLINK_WriteReg(R6, 0x00000000)  returns 0x00 (0000ms, 1217ms total)
TBF04 001:758 JLINK_WriteReg(R7, 0x00000000)  returns 0x00 (0000ms, 1217ms total)
TBF04 001:758 JLINK_WriteReg(R8, 0x00000000)  returns 0x00 (0000ms, 1217ms total)
TBF04 001:758 JLINK_WriteReg(R9, 0x20000184)  returns 0x00 (0000ms, 1217ms total)
TBF04 001:758 JLINK_WriteReg(R10, 0x00000000)  returns 0x00 (0000ms, 1217ms total)
TBF04 001:758 JLINK_WriteReg(R11, 0x00000000)  returns 0x00 (0000ms, 1217ms total)
TBF04 001:758 JLINK_WriteReg(R12, 0x00000000)  returns 0x00 (0000ms, 1217ms total)
TBF04 001:758 JLINK_WriteReg(R13 (SP), 0x20001000)  returns 0x00 (0000ms, 1217ms total)
TBF04 001:758 JLINK_WriteReg(R14, 0x20000001)  returns 0x00 (0000ms, 1217ms total)
TBF04 001:758 JLINK_WriteReg(R15 (PC), 0x20000112)  returns 0x00 (0000ms, 1217ms total)
TBF04 001:758 JLINK_WriteReg(XPSR, 0x01000000)  returns 0x00 (0000ms, 1217ms total)
TBF04 001:758 JLINK_WriteReg(MSP, 0x20001000)  returns 0x00 (0000ms, 1217ms total)
TBF04 001:758 JLINK_WriteReg(PSP, 0x20001000)  returns 0x00 (0000ms, 1217ms total)
TBF04 001:758 JLINK_WriteReg(CFBP, 0x00000000)  returns 0x00 (0000ms, 1217ms total)
TBF04 001:758 JLINK_SetBPEx(Addr = 0x20000000, Type = 0xFFFFFFF2)  returns 0x0000000D (0000ms, 1217ms total)
TBF04 001:758 JLINK_Go() -- CPU_ReadMem(4 bytes @ 0xE0001000) (0005ms, 1222ms total)
TBF04 001:763 JLINK_IsHalted()  returns FALSE (0001ms, 1223ms total)
TBF04 001:772 JLINK_IsHalted() -- CPU_ReadMem(2 bytes @ 0x20000000)  returns TRUE (0004ms, 1226ms total)
TBF04 001:776 JLINK_ReadReg(R15 (PC))  returns 0x20000000 (0000ms, 1222ms total)
TBF04 001:776 JLINK_ClrBPEx(BPHandle = 0x0000000D)  returns 0x00 (0000ms, 1222ms total)
TBF04 001:776 JLINK_ReadReg(R0)  returns 0x00000000 (0000ms, 1222ms total)
TBF04 001:777 JLINK_WriteMem(0x20000188, 0x0278 Bytes, ...) - Data: 02 46 F8 0F 01 D0 2D 23 07 E0 20 68 81 07 01 D5 ... -- CPU_WriteMem(632 bytes @ 0x20000188)  returns 0x278 (0005ms, 1227ms total)
TBF04 001:782 JLINK_WriteMem(0x20000400, 0x0188 Bytes, ...) - Data: 04 E0 D4 E9 01 21 16 F8 01 0B 90 47 BA F1 01 0A ... -- CPU_WriteMem(392 bytes @ 0x20000400)  returns 0x188 (0003ms, 1230ms total)
TBF04 001:785 JLINK_WriteReg(R0, 0x08001C00)  returns 0x00 (0000ms, 1230ms total)
TBF04 001:785 JLINK_WriteReg(R1, 0x00000400)  returns 0x00 (0000ms, 1230ms total)
TBF04 001:785 JLINK_WriteReg(R2, 0x20000188)  returns 0x00 (0001ms, 1231ms total)
TBF04 001:786 JLINK_WriteReg(R3, 0x00000000)  returns 0x00 (0000ms, 1231ms total)
TBF04 001:786 JLINK_WriteReg(R4, 0x00000000)  returns 0x00 (0000ms, 1231ms total)
TBF04 001:786 JLINK_WriteReg(R5, 0x00000000)  returns 0x00 (0000ms, 1231ms total)
TBF04 001:786 JLINK_WriteReg(R6, 0x00000000)  returns 0x00 (0000ms, 1231ms total)
TBF04 001:786 JLINK_WriteReg(R7, 0x00000000)  returns 0x00 (0000ms, 1231ms total)
TBF04 001:786 JLINK_WriteReg(R8, 0x00000000)  returns 0x00 (0000ms, 1231ms total)
TBF04 001:786 JLINK_WriteReg(R9, 0x20000184)  returns 0x00 (0000ms, 1231ms total)
TBF04 001:786 JLINK_WriteReg(R10, 0x00000000)  returns 0x00 (0000ms, 1231ms total)
TBF04 001:786 JLINK_WriteReg(R11, 0x00000000)  returns 0x00 (0000ms, 1231ms total)
TBF04 001:786 JLINK_WriteReg(R12, 0x00000000)  returns 0x00 (0000ms, 1231ms total)
TBF04 001:786 JLINK_WriteReg(R13 (SP), 0x20001000)  returns 0x00 (0000ms, 1231ms total)
TBF04 001:786 JLINK_WriteReg(R14, 0x20000001)  returns 0x00 (0000ms, 1231ms total)
TBF04 001:786 JLINK_WriteReg(R15 (PC), 0x20000112)  returns 0x00 (0000ms, 1231ms total)
TBF04 001:786 JLINK_WriteReg(XPSR, 0x01000000)  returns 0x00 (0000ms, 1231ms total)
TBF04 001:786 JLINK_WriteReg(MSP, 0x20001000)  returns 0x00 (0000ms, 1231ms total)
TBF04 001:786 JLINK_WriteReg(PSP, 0x20001000)  returns 0x00 (0000ms, 1231ms total)
TBF04 001:786 JLINK_WriteReg(CFBP, 0x00000000)  returns 0x00 (0000ms, 1231ms total)
TBF04 001:786 JLINK_SetBPEx(Addr = 0x20000000, Type = 0xFFFFFFF2)  returns 0x0000000E (0000ms, 1231ms total)
TBF04 001:786 JLINK_Go() -- CPU_ReadMem(4 bytes @ 0xE0001000) (0005ms, 1236ms total)
TBF04 001:791 JLINK_IsHalted()  returns FALSE (0001ms, 1237ms total)
TBF04 001:794 JLINK_IsHalted()  returns FALSE (0001ms, 1237ms total)
TBF04 001:797 JLINK_IsHalted() -- CPU_ReadMem(2 bytes @ 0x20000000)  returns TRUE (0004ms, 1240ms total)
TBF04 001:801 JLINK_ReadReg(R15 (PC))  returns 0x20000000 (0000ms, 1236ms total)
TBF04 001:801 JLINK_ClrBPEx(BPHandle = 0x0000000E)  returns 0x00 (0000ms, 1236ms total)
TBF04 001:801 JLINK_ReadReg(R0)  returns 0x00000000 (0000ms, 1236ms total)
TBF04 001:802 JLINK_WriteMem(0x20000188, 0x0278 Bytes, ...) - Data: 98 A0 80 46 00 27 FA 44 AA F1 BE 0A 0E E0 E0 07 ... -- CPU_WriteMem(632 bytes @ 0x20000188)  returns 0x278 (0006ms, 1242ms total)
TBF04 001:808 JLINK_WriteMem(0x20000400, 0x0188 Bytes, ...) - Data: 74 20 6F 70 65 6E 3A 20 00 00 00 00 10 B5 01 28 ... -- CPU_WriteMem(392 bytes @ 0x20000400)  returns 0x188 (0003ms, 1245ms total)
TBF04 001:811 JLINK_WriteReg(R0, 0x08002000)  returns 0x00 (0001ms, 1246ms total)
TBF04 001:812 JLINK_WriteReg(R1, 0x00000400)  returns 0x00 (0000ms, 1246ms total)
TBF04 001:812 JLINK_WriteReg(R2, 0x20000188)  returns 0x00 (0000ms, 1246ms total)
TBF04 001:812 JLINK_WriteReg(R3, 0x00000000)  returns 0x00 (0000ms, 1246ms total)
TBF04 001:812 JLINK_WriteReg(R4, 0x00000000)  returns 0x00 (0000ms, 1246ms total)
TBF04 001:812 JLINK_WriteReg(R5, 0x00000000)  returns 0x00 (0000ms, 1246ms total)
TBF04 001:812 JLINK_WriteReg(R6, 0x00000000)  returns 0x00 (0000ms, 1246ms total)
TBF04 001:812 JLINK_WriteReg(R7, 0x00000000)  returns 0x00 (0000ms, 1246ms total)
TBF04 001:812 JLINK_WriteReg(R8, 0x00000000)  returns 0x00 (0000ms, 1246ms total)
TBF04 001:812 JLINK_WriteReg(R9, 0x20000184)  returns 0x00 (0000ms, 1246ms total)
TBF04 001:812 JLINK_WriteReg(R10, 0x00000000)  returns 0x00 (0000ms, 1246ms total)
TBF04 001:812 JLINK_WriteReg(R11, 0x00000000)  returns 0x00 (0000ms, 1246ms total)
TBF04 001:812 JLINK_WriteReg(R12, 0x00000000)  returns 0x00 (0000ms, 1246ms total)
TBF04 001:812 JLINK_WriteReg(R13 (SP), 0x20001000)  returns 0x00 (0000ms, 1246ms total)
TBF04 001:812 JLINK_WriteReg(R14, 0x20000001)  returns 0x00 (0000ms, 1246ms total)
TBF04 001:812 JLINK_WriteReg(R15 (PC), 0x20000112)  returns 0x00 (0000ms, 1246ms total)
TBF04 001:812 JLINK_WriteReg(XPSR, 0x01000000)  returns 0x00 (0000ms, 1246ms total)
TBF04 001:812 JLINK_WriteReg(MSP, 0x20001000)  returns 0x00 (0000ms, 1246ms total)
TBF04 001:812 JLINK_WriteReg(PSP, 0x20001000)  returns 0x00 (0000ms, 1246ms total)
TBF04 001:812 JLINK_WriteReg(CFBP, 0x00000000)  returns 0x00 (0000ms, 1246ms total)
TBF04 001:812 JLINK_SetBPEx(Addr = 0x20000000, Type = 0xFFFFFFF2)  returns 0x0000000F (0000ms, 1246ms total)
TBF04 001:812 JLINK_Go() -- CPU_ReadMem(4 bytes @ 0xE0001000) (0005ms, 1251ms total)
TBF04 001:817 JLINK_IsHalted()  returns FALSE (0001ms, 1252ms total)
TBF04 001:820 JLINK_IsHalted()  returns FALSE (0001ms, 1252ms total)
TBF04 001:823 JLINK_IsHalted() -- CPU_ReadMem(2 bytes @ 0x20000000)  returns TRUE (0005ms, 1256ms total)
TBF04 001:828 JLINK_ReadReg(R15 (PC))  returns 0x20000000 (0000ms, 1251ms total)
TBF04 001:828 JLINK_ClrBPEx(BPHandle = 0x0000000F)  returns 0x00 (0000ms, 1251ms total)
TBF04 001:828 JLINK_ReadReg(R0)  returns 0x00000000 (0000ms, 1251ms total)
TBF04 001:829 JLINK_WriteMem(0x20000188, 0x0278 Bytes, ...) - Data: 13 27 49 08 3E 78 5F EA 32 02 03 FB 06 67 C7 F5 ... -- CPU_WriteMem(632 bytes @ 0x20000188)  returns 0x278 (0005ms, 1256ms total)
TBF04 001:834 JLINK_WriteMem(0x20000400, 0x0188 Bytes, ...) - Data: 01 01 A3 F1 01 03 70 47 80 80 7F 7E 7D 7C 7B 7A ... -- CPU_WriteMem(392 bytes @ 0x20000400)  returns 0x188 (0003ms, 1259ms total)
TBF04 001:837 JLINK_WriteReg(R0, 0x08002400)  returns 0x00 (0001ms, 1260ms total)
TBF04 001:838 JLINK_WriteReg(R1, 0x00000400)  returns 0x00 (0000ms, 1260ms total)
TBF04 001:838 JLINK_WriteReg(R2, 0x20000188)  returns 0x00 (0000ms, 1260ms total)
TBF04 001:838 JLINK_WriteReg(R3, 0x00000000)  returns 0x00 (0000ms, 1260ms total)
TBF04 001:838 JLINK_WriteReg(R4, 0x00000000)  returns 0x00 (0000ms, 1260ms total)
TBF04 001:838 JLINK_WriteReg(R5, 0x00000000)  returns 0x00 (0000ms, 1260ms total)
TBF04 001:838 JLINK_WriteReg(R6, 0x00000000)  returns 0x00 (0000ms, 1260ms total)
